
Note: No compatibility mode selected!


Circuit: * scr with state cap for proper latching

Doing analysis at TEMP = 27.000000 and TNOM = 27.000000

Using transient initial conditions

No. of Data Rows : 276
                    * scr with state cap for proper latching
                    Transient Analysis  Fri Mar 27 20:47:51  2026
--------------------------------------------------------------------------------
Index   time            v(a)            v(g)            v(st)           
--------------------------------------------------------------------------------
0	2.000000e-07	1.188107e+01	2.159759e-05	2.375735e-04	
1	4.000000e-07	1.188108e+01	4.319083e-05	4.750991e-04	
2	8.000000e-07	1.188108e+01	8.636860e-05	9.500546e-04	
3	1.600000e-06	1.188109e+01	1.726719e-04	1.899391e-03	
4	3.200000e-06	1.188111e+01	3.450700e-04	3.795769e-03	
5	6.400000e-06	1.188115e+01	6.890331e-04	7.579364e-03	
6	1.280000e-05	1.188122e+01	1.373641e-03	1.511006e-02	
7	2.000000e-05	1.188130e+01	2.138565e-03	2.352422e-02	
8	2.128000e-05	1.188132e+01	2.273883e-03	2.501272e-02	
9	2.384000e-05	1.188135e+01	2.544171e-03	2.798588e-02	
10	2.896000e-05	1.188141e+01	3.082660e-03	3.390926e-02	
11	3.920000e-05	1.188152e+01	4.151341e-03	4.566475e-02	
12	5.920000e-05	1.188175e+01	6.207112e-03	6.827823e-02	
13	7.920000e-05	1.188197e+01	8.221848e-03	9.044033e-02	
14	9.920000e-05	1.188218e+01	1.019637e-02	1.121601e-01	
15	1.192000e-04	1.188239e+01	1.213148e-02	1.334462e-01	
16	1.392000e-04	1.188260e+01	1.402796e-02	1.543075e-01	
17	1.592000e-04	1.188280e+01	1.588658e-02	1.747524e-01	
18	1.792000e-04	1.188300e+01	1.770811e-02	1.947892e-01	
19	1.992000e-04	1.188319e+01	1.949328e-02	2.144260e-01	
20	2.192000e-04	1.188338e+01	2.124281e-02	2.336709e-01	
21	2.392000e-04	1.188357e+01	2.295742e-02	2.525316e-01	
22	2.592000e-04	1.188375e+01	2.463781e-02	2.710159e-01	
23	2.792000e-04	1.188393e+01	2.628465e-02	2.891312e-01	
24	2.992000e-04	1.188411e+01	2.789863e-02	3.068849e-01	
25	3.192000e-04	1.188428e+01	2.948038e-02	3.242842e-01	
26	3.392000e-04	1.188445e+01	3.103057e-02	3.413362e-01	
27	3.592000e-04	1.188462e+01	3.254981e-02	3.580479e-01	
28	3.792000e-04	1.188478e+01	3.403872e-02	3.744259e-01	
29	3.992000e-04	1.188494e+01	3.549792e-02	3.904771e-01	
30	4.192000e-04	1.188509e+01	3.692799e-02	4.062078e-01	
31	4.392000e-04	1.188524e+01	3.832951e-02	4.216246e-01	
32	4.592000e-04	1.188539e+01	3.970306e-02	4.367336e-01	
33	4.792000e-04	1.188554e+01	4.104919e-02	4.515411e-01	
34	4.992000e-04	1.188568e+01	4.236845e-02	4.660529e-01	
35	5.000000e-04	1.188569e+01	4.242066e-02	4.666273e-01	
36	5.010000e-04	1.188570e+01	3.152379e-01	4.676167e-01	
37	5.030000e-04	1.188573e+01	8.609217e-01	4.701385e-01	
38	5.070000e-04	1.188581e+01	1.952585e+00	4.784330e-01	
39	5.100000e-04	1.188590e+01	2.771590e+00	4.874912e-01	
40	5.108000e-04	1.188592e+01	2.771839e+00	4.902282e-01	
41	5.124000e-04	1.188598e+01	2.772336e+00	4.956976e-01	
42	5.156000e-04	1.188609e+01	2.773328e+00	5.066102e-01	
43	5.220000e-04	1.188630e+01	2.775303e+00	5.283300e-01	
44	5.348000e-04	1.188673e+01	2.779214e+00	5.713519e-01	
45	5.548000e-04	1.188621e-01	2.784166e+00	6.258223e-01	
46	5.748000e-04	1.188662e-01	2.787959e+00	6.675542e-01	
47	5.948000e-04	1.188703e-01	2.791677e+00	7.084522e-01	
48	6.148000e-04	1.188742e-01	2.795321e+00	7.485331e-01	
49	6.348000e-04	1.188781e-01	2.798892e+00	7.878132e-01	
50	6.548000e-04	1.188819e-01	2.802392e+00	8.263084e-01	
51	6.748000e-04	1.188857e-01	2.805821e+00	8.640345e-01	
52	6.948000e-04	1.188893e-01	2.809182e+00	9.010069e-01	
53	7.148000e-04	1.188929e-01	2.812476e+00	9.372406e-01	
54	7.348000e-04	1.188964e-01	2.815705e+00	9.727503e-01	

Index   time            v(a)            v(g)            v(st)           
--------------------------------------------------------------------------------
55	7.548000e-04	1.188999e-01	2.818868e+00	1.007550e+00	
56	7.748000e-04	1.189032e-01	2.821969e+00	1.041655e+00	
57	7.948000e-04	1.189066e-01	2.825007e+00	1.075079e+00	
58	8.100000e-04	1.189090e-01	2.827276e+00	1.100033e+00	
59	8.110000e-04	1.189092e-01	2.554672e+00	1.101388e+00	
60	8.130000e-04	1.189094e-01	2.009414e+00	1.103550e+00	
61	8.170000e-04	1.189095e-01	9.185997e-01	1.104596e+00	
62	8.200000e-04	1.189093e-01	1.002289e-01	1.102518e+00	
63	8.208000e-04	1.189092e-01	1.001490e-01	1.101639e+00	
64	8.224000e-04	1.189090e-01	9.998912e-02	1.099880e+00	
65	8.256000e-04	1.189087e-01	9.967022e-02	1.096372e+00	
66	8.320000e-04	1.189080e-01	9.903550e-02	1.089391e+00	
67	8.448000e-04	1.189066e-01	9.777828e-02	1.075561e+00	
68	8.648000e-04	1.189045e-01	9.584605e-02	1.054307e+00	
69	8.848000e-04	1.189024e-01	9.395243e-02	1.033477e+00	
70	9.048000e-04	1.189004e-01	9.209665e-02	1.013063e+00	
71	9.248000e-04	1.188984e-01	9.027794e-02	9.930573e-01	
72	9.448000e-04	1.188965e-01	8.849557e-02	9.734513e-01	
73	9.648000e-04	1.188946e-01	8.674881e-02	9.542369e-01	
74	9.848000e-04	1.188927e-01	8.503695e-02	9.354065e-01	
75	1.004800e-03	1.188909e-01	8.335930e-02	9.169523e-01	
76	1.024800e-03	1.188891e-01	8.171516e-02	8.988668e-01	
77	1.044800e-03	1.188874e-01	8.010388e-02	8.811427e-01	
78	1.064800e-03	1.188856e-01	7.852479e-02	8.637727e-01	
79	1.084800e-03	1.188839e-01	7.697725e-02	8.467497e-01	
80	1.104800e-03	1.188823e-01	7.546062e-02	8.300669e-01	
81	1.124800e-03	1.188807e-01	7.397430e-02	8.137173e-01	
82	1.144800e-03	1.188791e-01	7.251768e-02	7.976945e-01	
83	1.164800e-03	1.188775e-01	7.109016e-02	7.819918e-01	
84	1.184800e-03	1.188760e-01	6.969116e-02	7.666028e-01	
85	1.204800e-03	1.188745e-01	6.832012e-02	7.515213e-01	
86	1.224800e-03	1.188731e-01	6.697647e-02	7.367411e-01	
87	1.244800e-03	1.188716e-01	6.565966e-02	7.222563e-01	
88	1.264800e-03	1.188702e-01	6.436916e-02	7.080608e-01	
89	1.284800e-03	1.188688e-01	6.310445e-02	6.941490e-01	
90	1.304800e-03	1.188675e-01	6.186501e-02	6.805151e-01	
91	1.324800e-03	1.188662e-01	6.065033e-02	6.671536e-01	
92	1.344800e-03	1.188649e-01	5.945992e-02	6.540591e-01	
93	1.364800e-03	1.188636e-01	5.829330e-02	6.412262e-01	
94	1.384800e-03	1.188624e-01	5.714998e-02	6.286498e-01	
95	1.404800e-03	1.188611e-01	5.602951e-02	6.163246e-01	
96	1.424800e-03	1.188599e-01	5.493142e-02	6.042456e-01	
97	1.444800e-03	1.188588e-01	5.385528e-02	5.924080e-01	
98	1.464800e-03	1.188576e-01	5.280063e-02	5.808069e-01	
99	1.484800e-03	1.188565e-01	5.176706e-02	5.694376e-01	
100	1.504800e-03	1.188554e-01	5.075414e-02	5.582955e-01	
101	1.524800e-03	1.188543e-01	4.976145e-02	5.473760e-01	
102	1.544800e-03	1.188532e-01	4.878860e-02	5.366746e-01	
103	1.564800e-03	1.188522e-01	4.783519e-02	5.261871e-01	
104	1.584800e-03	1.188512e-01	4.690083e-02	5.159091e-01	
105	1.604800e-03	1.188502e-01	4.598513e-02	5.058365e-01	
106	1.624800e-03	1.188492e-01	4.508773e-02	4.959651e-01	
107	1.644800e-03	1.188483e-01	4.420826e-02	4.862909e-01	
108	1.664800e-03	1.188473e-01	4.334637e-02	4.768100e-01	
109	1.684800e-03	1.188464e-01	4.250169e-02	4.675186e-01	
110	1.704800e-03	1.188455e-01	4.167389e-02	4.584128e-01	
111	1.724800e-03	1.188446e-01	4.086263e-02	4.494889e-01	
112	1.744800e-03	1.188438e-01	4.006758e-02	4.407434e-01	

Index   time            v(a)            v(g)            v(st)           
--------------------------------------------------------------------------------
113	1.764800e-03	1.188429e-01	3.928841e-02	4.321725e-01	
114	1.784800e-03	1.188421e-01	3.852481e-02	4.237730e-01	
115	1.804800e-03	1.188413e-01	3.777647e-02	4.155412e-01	
116	1.824800e-03	1.188405e-01	3.704308e-02	4.074739e-01	
117	1.844800e-03	1.188514e+01	3.738332e-02	4.112166e-01	
118	1.864800e-03	1.188529e+01	3.877576e-02	4.265333e-01	
119	1.884800e-03	1.188544e+01	4.014040e-02	4.415444e-01	
120	1.904800e-03	1.188559e+01	4.147780e-02	4.562558e-01	
121	1.924800e-03	1.188573e+01	4.278850e-02	4.706736e-01	
122	1.944800e-03	1.188587e+01	4.407305e-02	4.848035e-01	
123	1.964800e-03	1.188601e+01	4.533195e-02	4.986514e-01	
124	1.984800e-03	1.188614e+01	4.656572e-02	5.122230e-01	
125	2.004800e-03	1.188627e+01	4.777487e-02	5.255236e-01	
126	2.024800e-03	1.188640e+01	4.895988e-02	5.385587e-01	
127	2.044800e-03	1.188653e+01	5.012124e-02	5.513336e-01	
128	2.064800e-03	1.188665e+01	5.125941e-02	5.638535e-01	
129	2.084800e-03	1.188677e+01	5.237487e-02	5.761236e-01	
130	2.104800e-03	1.188689e+01	5.346806e-02	5.881487e-01	
131	2.124800e-03	1.188701e+01	5.453943e-02	5.999337e-01	
132	2.144800e-03	1.188595e-01	5.453026e-02	5.998329e-01	
133	2.164800e-03	1.188583e-01	5.346213e-02	5.880834e-01	
134	2.184800e-03	1.188572e-01	5.241534e-02	5.765688e-01	
135	2.204800e-03	1.188561e-01	5.138947e-02	5.652841e-01	
136	2.224800e-03	1.188550e-01	5.038409e-02	5.542250e-01	
137	2.244800e-03	1.188539e-01	4.939880e-02	5.433868e-01	
138	2.264800e-03	1.188529e-01	4.843319e-02	5.327651e-01	
139	2.284800e-03	1.188518e-01	4.748688e-02	5.223557e-01	
140	2.304800e-03	1.188508e-01	4.655948e-02	5.121543e-01	
141	2.324800e-03	1.188498e-01	4.565060e-02	5.021567e-01	
142	2.344800e-03	1.188489e-01	4.475989e-02	4.923588e-01	
143	2.364800e-03	1.188479e-01	4.388697e-02	4.827567e-01	
144	2.384800e-03	1.188470e-01	4.303149e-02	4.733464e-01	
145	2.404800e-03	1.188461e-01	4.219311e-02	4.641242e-01	
146	2.424800e-03	1.188452e-01	4.137147e-02	4.550862e-01	
147	2.444800e-03	1.188443e-01	4.056626e-02	4.462288e-01	
148	2.464800e-03	1.188434e-01	3.977713e-02	4.375484e-01	
149	2.484800e-03	1.188426e-01	3.900376e-02	4.290414e-01	
150	2.504800e-03	1.188418e-01	3.824585e-02	4.207044e-01	
151	2.524800e-03	1.188410e-01	3.750308e-02	4.125339e-01	
152	2.544800e-03	1.188402e-01	3.677516e-02	4.045267e-01	
153	2.564800e-03	1.188511e+01	3.712075e-02	4.083282e-01	
154	2.584800e-03	1.188527e+01	3.851842e-02	4.237027e-01	
155	2.604800e-03	1.188541e+01	3.988820e-02	4.387702e-01	
156	2.624800e-03	1.188556e+01	4.123064e-02	4.535370e-01	
157	2.644800e-03	1.188570e+01	4.254627e-02	4.680090e-01	
158	2.664800e-03	1.188584e+01	4.383565e-02	4.821922e-01	
159	2.684800e-03	1.188598e+01	4.509929e-02	4.960922e-01	
160	2.704800e-03	1.188612e+01	4.633771e-02	5.097148e-01	
161	2.724800e-03	1.188625e+01	4.755141e-02	5.230655e-01	
162	2.744800e-03	1.188638e+01	4.874088e-02	5.361497e-01	
163	2.764800e-03	1.188651e+01	4.990661e-02	5.489727e-01	
164	2.784800e-03	1.188663e+01	5.104907e-02	5.615397e-01	
165	2.804800e-03	1.188675e+01	5.216872e-02	5.738559e-01	
166	2.824800e-03	1.188687e+01	5.326603e-02	5.859263e-01	
167	2.844800e-03	1.188699e+01	5.434143e-02	5.977557e-01	
168	2.864800e-03	1.188593e-01	5.433622e-02	5.976984e-01	
169	2.884800e-03	1.188581e-01	5.327196e-02	5.859916e-01	
170	2.904800e-03	1.188570e-01	5.222897e-02	5.745187e-01	

Index   time            v(a)            v(g)            v(st)           
--------------------------------------------------------------------------------
171	2.924800e-03	1.188559e-01	5.120682e-02	5.632750e-01	
172	2.944800e-03	1.188548e-01	5.020509e-02	5.522560e-01	
173	2.964800e-03	1.188537e-01	4.922338e-02	5.414572e-01	
174	2.984800e-03	1.188527e-01	4.826128e-02	5.308741e-01	
175	3.004800e-03	1.188516e-01	4.731840e-02	5.205024e-01	
176	3.024800e-03	1.188506e-01	4.639437e-02	5.103380e-01	
177	3.044800e-03	1.188497e-01	4.548879e-02	5.003767e-01	
178	3.064800e-03	1.188487e-01	4.460131e-02	4.906144e-01	
179	3.084800e-03	1.188477e-01	4.373156e-02	4.810471e-01	
180	3.104800e-03	1.188468e-01	4.287919e-02	4.716710e-01	
181	3.124800e-03	1.188459e-01	4.204384e-02	4.624823e-01	
182	3.144800e-03	1.188450e-01	4.122519e-02	4.534771e-01	
183	3.164800e-03	1.188441e-01	4.042290e-02	4.446519e-01	
184	3.184800e-03	1.188433e-01	3.963663e-02	4.360029e-01	
185	3.204800e-03	1.188424e-01	3.886607e-02	4.275268e-01	
186	3.224800e-03	1.188416e-01	3.811091e-02	4.192201e-01	
187	3.244800e-03	1.188408e-01	3.737084e-02	4.110793e-01	
188	3.264800e-03	1.188400e-01	3.664556e-02	4.031011e-01	
189	3.284800e-03	1.188510e+01	3.699374e-02	4.069311e-01	
190	3.304800e-03	1.188525e+01	3.839395e-02	4.223334e-01	
191	3.324800e-03	1.188540e+01	3.976621e-02	4.374283e-01	
192	3.344800e-03	1.188555e+01	4.111108e-02	4.522219e-01	
193	3.364800e-03	1.188569e+01	4.242910e-02	4.667202e-01	
194	3.384800e-03	1.188583e+01	4.372082e-02	4.809290e-01	
195	3.404800e-03	1.188597e+01	4.498675e-02	4.948543e-01	
196	3.424800e-03	1.188611e+01	4.622742e-02	5.085016e-01	
197	3.444800e-03	1.188624e+01	4.744332e-02	5.218765e-01	
198	3.464800e-03	1.188637e+01	4.863495e-02	5.349844e-01	
199	3.484800e-03	1.188649e+01	4.980279e-02	5.478307e-01	
200	3.504800e-03	1.188662e+01	5.094732e-02	5.604205e-01	
201	3.524800e-03	1.188674e+01	5.206901e-02	5.727591e-01	
202	3.544800e-03	1.188686e+01	5.316830e-02	5.848513e-01	
203	3.564800e-03	1.188698e+01	5.424566e-02	5.967022e-01	
204	3.584800e-03	1.188592e-01	5.424235e-02	5.966659e-01	
205	3.604800e-03	1.188580e-01	5.317998e-02	5.849797e-01	
206	3.624800e-03	1.188569e-01	5.213882e-02	5.735271e-01	
207	3.644800e-03	1.188558e-01	5.111847e-02	5.623032e-01	
208	3.664800e-03	1.188547e-01	5.011851e-02	5.513036e-01	
209	3.684800e-03	1.188536e-01	4.913853e-02	5.405238e-01	
210	3.704800e-03	1.188526e-01	4.817812e-02	5.299594e-01	
211	3.724800e-03	1.188516e-01	4.723691e-02	5.196060e-01	
212	3.744800e-03	1.188506e-01	4.631450e-02	5.094595e-01	
213	3.764800e-03	1.188496e-01	4.541052e-02	4.995157e-01	
214	3.784800e-03	1.188486e-01	4.452460e-02	4.897706e-01	
215	3.804800e-03	1.188477e-01	4.365638e-02	4.802202e-01	
216	3.824800e-03	1.188467e-01	4.280551e-02	4.708606e-01	
217	3.844800e-03	1.188458e-01	4.197164e-02	4.616881e-01	
218	3.864800e-03	1.188449e-01	4.115443e-02	4.526988e-01	
219	3.884800e-03	1.188441e-01	4.035355e-02	4.438891e-01	
220	3.904800e-03	1.188432e-01	3.956867e-02	4.352554e-01	
221	3.924800e-03	1.188424e-01	3.879947e-02	4.267942e-01	
222	3.944800e-03	1.188416e-01	3.804564e-02	4.185021e-01	
223	3.964800e-03	1.188407e-01	3.730688e-02	4.103756e-01	
224	3.984800e-03	1.188400e-01	3.658287e-02	4.024116e-01	
225	4.004800e-03	1.188509e+01	3.693230e-02	4.062553e-01	
226	4.024800e-03	1.188525e+01	3.833374e-02	4.216711e-01	
227	4.044800e-03	1.188539e+01	3.970720e-02	4.367792e-01	
228	4.064800e-03	1.188554e+01	4.105325e-02	4.515857e-01	

Index   time            v(a)            v(g)            v(st)           
--------------------------------------------------------------------------------
229	4.084800e-03	1.188569e+01	4.237243e-02	4.660967e-01	
230	4.104800e-03	1.188583e+01	4.366528e-02	4.803180e-01	
231	4.124800e-03	1.188596e+01	4.493232e-02	4.942555e-01	
232	4.144800e-03	1.188610e+01	4.617407e-02	5.079148e-01	
233	4.164800e-03	1.188623e+01	4.739103e-02	5.213014e-01	
234	4.184800e-03	1.188636e+01	4.858370e-02	5.344208e-01	
235	4.204800e-03	1.188649e+01	4.975257e-02	5.472783e-01	
236	4.224800e-03	1.188661e+01	5.089811e-02	5.598792e-01	
237	4.244800e-03	1.188674e+01	5.202077e-02	5.722285e-01	
238	4.264800e-03	1.188686e+01	5.312103e-02	5.843314e-01	
239	4.284800e-03	1.188697e+01	5.419933e-02	5.961926e-01	
240	4.304800e-03	1.188591e-01	5.419695e-02	5.961665e-01	
241	4.324800e-03	1.188580e-01	5.313548e-02	5.844903e-01	
242	4.344800e-03	1.188569e-01	5.209522e-02	5.730474e-01	
243	4.364800e-03	1.188557e-01	5.107574e-02	5.618331e-01	
244	4.384800e-03	1.188547e-01	5.007663e-02	5.508429e-01	
245	4.404800e-03	1.188536e-01	4.909748e-02	5.400723e-01	
246	4.424800e-03	1.188525e-01	4.813790e-02	5.295169e-01	
247	4.444800e-03	1.188515e-01	4.719749e-02	5.191724e-01	
248	4.464800e-03	1.188505e-01	4.627587e-02	5.090345e-01	
249	4.484800e-03	1.188495e-01	4.537266e-02	4.990992e-01	
250	4.504800e-03	1.188486e-01	4.448750e-02	4.893625e-01	
251	4.524800e-03	1.188476e-01	4.362002e-02	4.798202e-01	
252	4.544800e-03	1.188467e-01	4.276988e-02	4.704686e-01	
253	4.564800e-03	1.188458e-01	4.193672e-02	4.613039e-01	
254	4.584800e-03	1.188449e-01	4.112021e-02	4.523223e-01	
255	4.604800e-03	1.188440e-01	4.032001e-02	4.435201e-01	
256	4.624800e-03	1.188432e-01	3.953580e-02	4.348938e-01	
257	4.644800e-03	1.188423e-01	3.876726e-02	4.264398e-01	
258	4.664800e-03	1.188415e-01	3.801407e-02	4.181548e-01	
259	4.684800e-03	1.188407e-01	3.727594e-02	4.100353e-01	
260	4.704800e-03	1.188399e-01	3.655255e-02	4.020780e-01	
261	4.724800e-03	1.188509e+01	3.690258e-02	4.059284e-01	
262	4.744800e-03	1.188524e+01	3.830461e-02	4.213507e-01	
263	4.764800e-03	1.188539e+01	3.967866e-02	4.364652e-01	
264	4.784800e-03	1.188554e+01	4.102528e-02	4.512780e-01	
265	4.804800e-03	1.188568e+01	4.234501e-02	4.657952e-01	
266	4.824800e-03	1.188582e+01	4.363841e-02	4.800225e-01	
267	4.844800e-03	1.188596e+01	4.490599e-02	4.939659e-01	
268	4.864800e-03	1.188610e+01	4.614826e-02	5.076309e-01	
269	4.884800e-03	1.188623e+01	4.736574e-02	5.210232e-01	
270	4.904800e-03	1.188636e+01	4.855892e-02	5.341481e-01	
271	4.924800e-03	1.188649e+01	4.972828e-02	5.470111e-01	
272	4.944800e-03	1.188661e+01	5.087430e-02	5.596173e-01	
273	4.964800e-03	1.188673e+01	5.199744e-02	5.719719e-01	
274	4.984800e-03	1.188685e+01	5.309817e-02	5.840798e-01	
275	5.000000e-03	1.188694e+01	5.391999e-02	5.931199e-01	


Total analysis time (seconds) = 0.003

Total elapsed time (seconds) = 0.057 

Total DRAM available = 32452.422 MB.
DRAM currently available = 12793.066 MB.
Maximum ngspice program size =   16.016 MB.
Current ngspice program size =   16.016 MB.

