
Note: No compatibility mode selected!


Circuit: * scr 2bjt with holding cap - no current probe

Doing analysis at TEMP = 27.000000 and TNOM = 27.000000


Initial Transient Solution
--------------------------

Node                                   Voltage
----                                   -------
vcc                                         12
a                                       11.988
g                                            0
nd1                                    11.7659
vgate#branch                       1.27659e-11
vcc#branch                         -1.1993e-05


No. of Data Rows : 654
                 * scr 2bjt with holding cap - no current probe
                 Transient Analysis  Fri Mar 27 20:46:48  2026
--------------------------------------------------------------------------------
Index   time            v(a)            v(g)            
--------------------------------------------------------------------------------
0	0.000000e+00	1.198801e+01	0.000000e+00	
1	1.000000e-07	1.198801e+01	0.000000e+00	
2	2.000000e-07	1.198801e+01	0.000000e+00	
3	4.000000e-07	1.198801e+01	0.000000e+00	
4	8.000000e-07	1.198801e+01	0.000000e+00	
5	1.600000e-06	1.198801e+01	0.000000e+00	
6	3.200000e-06	1.198801e+01	0.000000e+00	
7	6.400000e-06	1.198801e+01	0.000000e+00	
8	1.280000e-05	1.198801e+01	0.000000e+00	
9	2.280000e-05	1.198801e+01	0.000000e+00	
10	3.280000e-05	1.198801e+01	0.000000e+00	
11	4.280000e-05	1.198801e+01	0.000000e+00	
12	5.280000e-05	1.198801e+01	0.000000e+00	
13	6.280000e-05	1.198801e+01	0.000000e+00	
14	7.280000e-05	1.198801e+01	0.000000e+00	
15	8.280000e-05	1.198801e+01	0.000000e+00	
16	9.280000e-05	1.198801e+01	0.000000e+00	
17	1.028000e-04	1.198801e+01	0.000000e+00	
18	1.128000e-04	1.198801e+01	0.000000e+00	
19	1.228000e-04	1.198801e+01	0.000000e+00	
20	1.328000e-04	1.198801e+01	0.000000e+00	
21	1.428000e-04	1.198801e+01	0.000000e+00	
22	1.528000e-04	1.198801e+01	0.000000e+00	
23	1.628000e-04	1.198801e+01	0.000000e+00	
24	1.728000e-04	1.198801e+01	0.000000e+00	
25	1.828000e-04	1.198801e+01	0.000000e+00	
26	1.928000e-04	1.198801e+01	0.000000e+00	
27	2.028000e-04	1.198801e+01	0.000000e+00	
28	2.128000e-04	1.198801e+01	0.000000e+00	
29	2.228000e-04	1.198801e+01	0.000000e+00	
30	2.328000e-04	1.198801e+01	0.000000e+00	
31	2.428000e-04	1.198801e+01	0.000000e+00	
32	2.528000e-04	1.198801e+01	0.000000e+00	
33	2.628000e-04	1.198801e+01	0.000000e+00	
34	2.728000e-04	1.198801e+01	0.000000e+00	
35	2.828000e-04	1.198801e+01	0.000000e+00	
36	2.928000e-04	1.198801e+01	0.000000e+00	
37	3.028000e-04	1.198801e+01	0.000000e+00	
38	3.128000e-04	1.198801e+01	0.000000e+00	
39	3.228000e-04	1.198801e+01	0.000000e+00	
40	3.328000e-04	1.198801e+01	0.000000e+00	
41	3.428000e-04	1.198801e+01	0.000000e+00	
42	3.528000e-04	1.198801e+01	0.000000e+00	
43	3.628000e-04	1.198801e+01	0.000000e+00	
44	3.728000e-04	1.198801e+01	0.000000e+00	
45	3.828000e-04	1.198801e+01	0.000000e+00	
46	3.928000e-04	1.198801e+01	0.000000e+00	
47	4.028000e-04	1.198801e+01	0.000000e+00	
48	4.128000e-04	1.198801e+01	0.000000e+00	
49	4.228000e-04	1.198801e+01	0.000000e+00	
50	4.328000e-04	1.198801e+01	0.000000e+00	
51	4.428000e-04	1.198801e+01	0.000000e+00	
52	4.528000e-04	1.198801e+01	0.000000e+00	
53	4.628000e-04	1.198801e+01	0.000000e+00	
54	4.728000e-04	1.198801e+01	0.000000e+00	

Index   time            v(a)            v(g)            
--------------------------------------------------------------------------------
55	4.828000e-04	1.198801e+01	0.000000e+00	
56	4.928000e-04	1.198801e+01	0.000000e+00	
57	5.000000e-04	1.198801e+01	0.000000e+00	
58	5.001024e-04	1.198805e+01	5.122397e-02	
59	5.003073e-04	1.198812e+01	1.536719e-01	
60	5.007171e-04	1.198810e+01	3.585678e-01	
61	5.011329e-04	2.317389e+00	5.664459e-01	
62	5.014429e-04	-1.79064e+00	7.214631e-01	
63	5.017444e-04	6.172216e-01	8.722142e-01	
64	5.018242e-04	6.347233e-01	9.121130e-01	
65	5.019158e-04	6.295003e-01	9.578947e-01	
66	5.020369e-04	6.311883e-01	1.018475e+00	
67	5.021475e-04	6.296560e-01	1.073728e+00	
68	5.022677e-04	6.305500e-01	1.133846e+00	
69	5.023915e-04	6.294499e-01	1.195757e+00	
70	5.025190e-04	6.299332e-01	1.259502e+00	
71	5.026507e-04	6.293154e-01	1.325356e+00	
72	5.027859e-04	6.294212e-01	1.392971e+00	
73	5.029247e-04	6.290605e-01	1.462353e+00	
74	5.030668e-04	6.290564e-01	1.533421e+00	
75	5.032122e-04	6.288133e-01	1.606095e+00	
76	5.033606e-04	6.287518e-01	1.680321e+00	
77	5.035121e-04	6.285699e-01	1.756039e+00	
78	5.036664e-04	6.284849e-01	1.833195e+00	
79	5.038235e-04	6.283386e-01	1.911743e+00	
80	5.039833e-04	6.282458e-01	1.991637e+00	
81	5.041457e-04	6.281218e-01	2.072834e+00	
82	5.043106e-04	6.280284e-01	2.155297e+00	
83	5.044780e-04	6.279195e-01	2.238988e+00	
84	5.046477e-04	6.278289e-01	2.323874e+00	
85	5.048198e-04	6.277309e-01	2.409923e+00	
86	5.049942e-04	6.276444e-01	2.497105e+00	
87	5.051708e-04	6.275547e-01	2.585392e+00	
88	5.053495e-04	6.274727e-01	2.674756e+00	
89	5.055303e-04	6.273899e-01	2.765175e+00	
90	5.057132e-04	6.273123e-01	2.856622e+00	
91	5.058982e-04	6.272351e-01	2.949077e+00	
92	5.060850e-04	6.271618e-01	3.042518e+00	
93	5.062738e-04	6.270895e-01	3.136925e+00	
94	5.064646e-04	6.270201e-01	3.232278e+00	
95	5.066571e-04	6.269520e-01	3.328561e+00	
96	5.068515e-04	6.268864e-01	3.425754e+00	
97	5.070477e-04	6.268220e-01	3.523842e+00	
98	5.072456e-04	6.267597e-01	3.622809e+00	
99	5.074453e-04	6.266987e-01	3.722640e+00	
100	5.076466e-04	6.266395e-01	3.823321e+00	
101	5.078497e-04	6.265815e-01	3.924837e+00	
102	5.080544e-04	6.265250e-01	4.027176e+00	
103	5.082607e-04	6.264698e-01	4.130326e+00	
104	5.084685e-04	6.264160e-01	4.234273e+00	
105	5.086780e-04	6.263632e-01	4.339007e+00	
106	5.088890e-04	6.263117e-01	4.444516e+00	
107	5.091016e-04	6.262613e-01	4.550790e+00	
108	5.093156e-04	6.262120e-01	4.657818e+00	
109	5.095312e-04	6.261636e-01	4.765591e+00	
110	5.097482e-04	6.261163e-01	4.874099e+00	
111	5.099667e-04	6.260699e-01	4.983333e+00	
112	5.100000e-04	6.309831e-01	5.000000e+00	

Index   time            v(a)            v(g)            
--------------------------------------------------------------------------------
113	5.100025e-04	6.302714e-01	5.000000e+00	
114	5.100074e-04	6.289197e-01	5.000000e+00	
115	5.100173e-04	6.265222e-01	5.000000e+00	
116	5.100371e-04	6.229569e-01	5.000000e+00	
117	5.100766e-04	6.191511e-01	5.000000e+00	
118	5.101249e-04	6.174469e-01	5.000000e+00	
119	5.101909e-04	6.167572e-01	5.000000e+00	
120	5.102823e-04	6.165800e-01	5.000000e+00	
121	5.104321e-04	6.165682e-01	5.000000e+00	
122	5.106982e-04	6.165872e-01	5.000000e+00	
123	5.112304e-04	6.165794e-01	5.000000e+00	
124	5.122949e-04	6.165851e-01	5.000000e+00	
125	5.144239e-04	6.165802e-01	5.000000e+00	
126	5.186818e-04	6.165847e-01	5.000000e+00	
127	5.271977e-04	6.165804e-01	5.000000e+00	
128	5.371977e-04	6.165846e-01	5.000000e+00	
129	5.471977e-04	6.165805e-01	5.000000e+00	
130	5.571977e-04	6.165845e-01	5.000000e+00	
131	5.671977e-04	6.165806e-01	5.000000e+00	
132	5.771977e-04	6.165844e-01	5.000000e+00	
133	5.871977e-04	6.165807e-01	5.000000e+00	
134	5.971977e-04	6.165844e-01	5.000000e+00	
135	6.071977e-04	6.165808e-01	5.000000e+00	
136	6.171977e-04	6.165843e-01	5.000000e+00	
137	6.271977e-04	6.165808e-01	5.000000e+00	
138	6.371977e-04	6.165842e-01	5.000000e+00	
139	6.471977e-04	6.165809e-01	5.000000e+00	
140	6.571977e-04	6.165841e-01	5.000000e+00	
141	6.671977e-04	6.165810e-01	5.000000e+00	
142	6.771977e-04	6.165841e-01	5.000000e+00	
143	6.871977e-04	6.165810e-01	5.000000e+00	
144	6.971977e-04	6.165840e-01	5.000000e+00	
145	7.071977e-04	6.165811e-01	5.000000e+00	
146	7.171977e-04	6.165839e-01	5.000000e+00	
147	7.271977e-04	6.165812e-01	5.000000e+00	
148	7.371977e-04	6.165839e-01	5.000000e+00	
149	7.471977e-04	6.165812e-01	5.000000e+00	
150	7.571977e-04	6.165838e-01	5.000000e+00	
151	7.671977e-04	6.165813e-01	5.000000e+00	
152	7.771977e-04	6.165837e-01	5.000000e+00	
153	7.871977e-04	6.165813e-01	5.000000e+00	
154	7.971977e-04	6.165837e-01	5.000000e+00	
155	8.071977e-04	6.165814e-01	5.000000e+00	
156	8.100000e-04	6.165836e-01	5.000000e+00	
157	8.100442e-04	6.031766e-01	4.977877e+00	
158	8.101327e-04	5.836433e-01	4.933630e+00	
159	8.101356e-04	5.832328e-01	4.932176e+00	
160	8.101415e-04	5.824735e-01	4.929269e+00	
161	8.101531e-04	5.810735e-01	4.923454e+00	
162	8.101764e-04	5.786190e-01	4.911823e+00	
163	8.102134e-04	5.754576e-01	4.893321e+00	
164	8.102485e-04	5.728944e-01	4.875740e+00	
165	8.102859e-04	5.706042e-01	4.857030e+00	
166	8.103213e-04	5.686850e-01	4.839349e+00	
167	8.103573e-04	5.669784e-01	4.821359e+00	
168	8.103932e-04	5.654691e-01	4.803420e+00	
169	8.104322e-04	5.641091e-01	4.783909e+00	
170	8.104737e-04	5.629336e-01	4.763167e+00	

Index   time            v(a)            v(g)            
--------------------------------------------------------------------------------
171	8.105129e-04	5.618704e-01	4.743561e+00	
172	8.105511e-04	5.608983e-01	4.724468e+00	
173	8.105885e-04	5.600104e-01	4.705737e+00	
174	8.106267e-04	5.592126e-01	4.686648e+00	
175	8.106645e-04	5.584840e-01	4.667732e+00	
176	8.107023e-04	5.578175e-01	4.648826e+00	
177	8.107396e-04	5.571978e-01	4.630178e+00	
178	8.107770e-04	5.566291e-01	4.611486e+00	
179	8.108142e-04	5.561019e-01	4.592908e+00	
180	8.108514e-04	5.556167e-01	4.574300e+00	
181	8.108884e-04	5.551637e-01	4.555806e+00	
182	8.109254e-04	5.547443e-01	4.537308e+00	
183	8.109622e-04	5.543521e-01	4.518889e+00	
184	8.109991e-04	5.539882e-01	4.500464e+00	
185	8.110358e-04	5.536473e-01	4.482099e+00	
186	8.110725e-04	5.533298e-01	4.463738e+00	
187	8.111092e-04	5.530319e-01	4.445424e+00	
188	8.111458e-04	5.527538e-01	4.427115e+00	
189	8.111823e-04	5.524925e-01	4.408842e+00	
190	8.112188e-04	5.522481e-01	4.390577e+00	
191	8.112553e-04	5.520182e-01	4.372341e+00	
192	8.112918e-04	5.518028e-01	4.354112e+00	
193	8.113282e-04	5.516000e-01	4.335907e+00	
194	8.113646e-04	5.514096e-01	4.317711e+00	
195	8.114009e-04	5.512302e-01	4.299533e+00	
196	8.114373e-04	5.510616e-01	4.281363e+00	
197	8.114736e-04	5.509026e-01	4.263209e+00	
198	8.115099e-04	5.507530e-01	4.245062e+00	
199	8.115461e-04	5.506119e-01	4.226929e+00	
200	8.115824e-04	5.504790e-01	4.208803e+00	
201	8.116186e-04	5.503535e-01	4.190688e+00	
202	8.116548e-04	5.502351e-01	4.172579e+00	
203	8.116910e-04	5.501234e-01	4.154480e+00	
204	8.117272e-04	5.500179e-01	4.136387e+00	
205	8.117634e-04	5.499183e-01	4.118302e+00	
206	8.117996e-04	5.498243e-01	4.100223e+00	
207	8.118357e-04	5.497353e-01	4.082150e+00	
208	8.118718e-04	5.496514e-01	4.064082e+00	
209	8.119080e-04	5.495719e-01	4.046021e+00	
210	8.119441e-04	5.494969e-01	4.027964e+00	
211	8.119802e-04	5.494259e-01	4.009912e+00	
212	8.120163e-04	5.493587e-01	3.991865e+00	
213	8.120524e-04	5.492952e-01	3.973822e+00	
214	8.120884e-04	5.492351e-01	3.955782e+00	
215	8.121245e-04	5.491782e-01	3.937747e+00	
216	8.121606e-04	5.491244e-01	3.919715e+00	
217	8.121966e-04	5.490735e-01	3.901687e+00	
218	8.122327e-04	5.490252e-01	3.883661e+00	
219	8.122687e-04	5.489796e-01	3.865639e+00	
220	8.123048e-04	5.489364e-01	3.847620e+00	
221	8.123408e-04	5.488954e-01	3.829603e+00	
222	8.123768e-04	5.488566e-01	3.811588e+00	
223	8.124128e-04	5.488199e-01	3.793577e+00	
224	8.124489e-04	5.487851e-01	3.775567e+00	
225	8.124849e-04	5.487522e-01	3.757559e+00	
226	8.125209e-04	5.487210e-01	3.739554e+00	
227	8.125569e-04	5.486914e-01	3.721550e+00	
228	8.125929e-04	5.486634e-01	3.703548e+00	

Index   time            v(a)            v(g)            
--------------------------------------------------------------------------------
229	8.126289e-04	5.486368e-01	3.685548e+00	
230	8.126649e-04	5.486116e-01	3.667550e+00	
231	8.127009e-04	5.485878e-01	3.649553e+00	
232	8.127369e-04	5.485652e-01	3.631557e+00	
233	8.127729e-04	5.485437e-01	3.613563e+00	
234	8.128089e-04	5.485234e-01	3.595570e+00	
235	8.128448e-04	5.485042e-01	3.577578e+00	
236	8.128808e-04	5.484859e-01	3.559588e+00	
237	8.129168e-04	5.484686e-01	3.541598e+00	
238	8.129528e-04	5.484522e-01	3.523610e+00	
239	8.129888e-04	5.484367e-01	3.505622e+00	
240	8.130247e-04	5.484219e-01	3.487636e+00	
241	8.130607e-04	5.484079e-01	3.469650e+00	
242	8.130967e-04	5.483947e-01	3.451666e+00	
243	8.131326e-04	5.483821e-01	3.433682e+00	
244	8.131686e-04	5.483702e-01	3.415698e+00	
245	8.132046e-04	5.483589e-01	3.397716e+00	
246	8.132405e-04	5.483481e-01	3.379734e+00	
247	8.132765e-04	5.483380e-01	3.361753e+00	
248	8.133125e-04	5.483283e-01	3.343772e+00	
249	8.133484e-04	5.483192e-01	3.325792e+00	
250	8.133844e-04	5.483105e-01	3.307813e+00	
251	8.134203e-04	5.483023e-01	3.289834e+00	
252	8.134563e-04	5.482945e-01	3.271856e+00	
253	8.134922e-04	5.482871e-01	3.253878e+00	
254	8.135282e-04	5.482801e-01	3.235900e+00	
255	8.135642e-04	5.482734e-01	3.217923e+00	
256	8.136001e-04	5.482671e-01	3.199946e+00	
257	8.136361e-04	5.482611e-01	3.181970e+00	
258	8.136720e-04	5.482555e-01	3.163994e+00	
259	8.137080e-04	5.482501e-01	3.146018e+00	
260	8.137439e-04	5.482450e-01	3.128043e+00	
261	8.137799e-04	5.482401e-01	3.110068e+00	
262	8.138158e-04	5.482355e-01	3.092093e+00	
263	8.138518e-04	5.482311e-01	3.074119e+00	
264	8.138877e-04	5.482270e-01	3.056144e+00	
265	8.139237e-04	5.482231e-01	3.038170e+00	
266	8.139596e-04	5.482194e-01	3.020197e+00	
267	8.139956e-04	5.482158e-01	3.002223e+00	
268	8.140315e-04	5.482125e-01	2.984250e+00	
269	8.140674e-04	5.482093e-01	2.966277e+00	
270	8.141034e-04	5.482063e-01	2.948304e+00	
271	8.141393e-04	5.482034e-01	2.930331e+00	
272	8.141753e-04	5.482007e-01	2.912358e+00	
273	8.142112e-04	5.481981e-01	2.894386e+00	
274	8.142472e-04	5.481957e-01	2.876414e+00	
275	8.142831e-04	5.481934e-01	2.858442e+00	
276	8.143191e-04	5.481912e-01	2.840470e+00	
277	8.143550e-04	5.481891e-01	2.822498e+00	
278	8.143909e-04	5.481871e-01	2.804526e+00	
279	8.144269e-04	5.481852e-01	2.786554e+00	
280	8.144628e-04	5.481835e-01	2.768583e+00	
281	8.144988e-04	5.481818e-01	2.750612e+00	
282	8.145347e-04	5.481802e-01	2.732640e+00	
283	8.145707e-04	5.481786e-01	2.714669e+00	
284	8.146066e-04	5.481772e-01	2.696698e+00	
285	8.146425e-04	5.481758e-01	2.678727e+00	
286	8.146785e-04	5.481745e-01	2.660756e+00	

Index   time            v(a)            v(g)            
--------------------------------------------------------------------------------
287	8.147144e-04	5.481733e-01	2.642785e+00	
288	8.147504e-04	5.481721e-01	2.624814e+00	
289	8.147863e-04	5.481710e-01	2.606844e+00	
290	8.148223e-04	5.481700e-01	2.588873e+00	
291	8.148582e-04	5.481690e-01	2.570902e+00	
292	8.148941e-04	5.481680e-01	2.552932e+00	
293	8.149301e-04	5.481671e-01	2.534961e+00	
294	8.149660e-04	5.481663e-01	2.516991e+00	
295	8.150020e-04	5.481655e-01	2.499020e+00	
296	8.150379e-04	5.481647e-01	2.481050e+00	
297	8.150738e-04	5.481640e-01	2.463080e+00	
298	8.151098e-04	5.481633e-01	2.445110e+00	
299	8.151457e-04	5.481626e-01	2.427139e+00	
300	8.151817e-04	5.481620e-01	2.409169e+00	
301	8.152176e-04	5.481614e-01	2.391199e+00	
302	8.152535e-04	5.481609e-01	2.373229e+00	
303	8.152895e-04	5.481603e-01	2.355259e+00	
304	8.153254e-04	5.481598e-01	2.337289e+00	
305	8.153614e-04	5.481594e-01	2.319319e+00	
306	8.153973e-04	5.481589e-01	2.301349e+00	
307	8.154332e-04	5.481585e-01	2.283379e+00	
308	8.154692e-04	5.481581e-01	2.265409e+00	
309	8.155051e-04	5.481577e-01	2.247439e+00	
310	8.155411e-04	5.481573e-01	2.229469e+00	
311	8.155770e-04	5.481570e-01	2.211499e+00	
312	8.156129e-04	5.481566e-01	2.193530e+00	
313	8.156489e-04	5.481563e-01	2.175560e+00	
314	8.156848e-04	5.481560e-01	2.157590e+00	
315	8.157208e-04	5.481557e-01	2.139620e+00	
316	8.157567e-04	5.481555e-01	2.121650e+00	
317	8.157926e-04	5.481552e-01	2.103681e+00	
318	8.158286e-04	5.481550e-01	2.085711e+00	
319	8.158645e-04	5.481547e-01	2.067741e+00	
320	8.159005e-04	5.481545e-01	2.049771e+00	
321	8.159364e-04	5.481543e-01	2.031802e+00	
322	8.159723e-04	5.481541e-01	2.013832e+00	
323	8.160083e-04	5.481539e-01	1.995862e+00	
324	8.160442e-04	5.481538e-01	1.977893e+00	
325	8.160802e-04	5.481536e-01	1.959923e+00	
326	8.161161e-04	5.481534e-01	1.941953e+00	
327	8.161520e-04	5.481533e-01	1.923984e+00	
328	8.161880e-04	5.481531e-01	1.906014e+00	
329	8.162239e-04	5.481530e-01	1.888045e+00	
330	8.162598e-04	5.481529e-01	1.870075e+00	
331	8.162958e-04	5.481528e-01	1.852105e+00	
332	8.163317e-04	5.481526e-01	1.834136e+00	
333	8.163677e-04	5.481525e-01	1.816166e+00	
334	8.164036e-04	5.481524e-01	1.798197e+00	
335	8.164395e-04	5.481523e-01	1.780227e+00	
336	8.164755e-04	5.481522e-01	1.762258e+00	
337	8.165114e-04	5.481522e-01	1.744288e+00	
338	8.165474e-04	5.481521e-01	1.726318e+00	
339	8.165833e-04	5.481520e-01	1.708349e+00	
340	8.166192e-04	5.481519e-01	1.690379e+00	
341	8.166552e-04	5.481518e-01	1.672410e+00	
342	8.166911e-04	5.481518e-01	1.654440e+00	
343	8.167271e-04	5.481517e-01	1.636471e+00	
344	8.167630e-04	5.481516e-01	1.618501e+00	

Index   time            v(a)            v(g)            
--------------------------------------------------------------------------------
345	8.167989e-04	5.481516e-01	1.600532e+00	
346	8.168349e-04	5.481515e-01	1.582562e+00	
347	8.168708e-04	5.481515e-01	1.564593e+00	
348	8.169068e-04	5.481514e-01	1.546623e+00	
349	8.169427e-04	5.481514e-01	1.528654e+00	
350	8.169786e-04	5.481513e-01	1.510684e+00	
351	8.170146e-04	5.481513e-01	1.492715e+00	
352	8.170505e-04	5.481513e-01	1.474745e+00	
353	8.170864e-04	5.481512e-01	1.456776e+00	
354	8.171224e-04	5.481512e-01	1.438806e+00	
355	8.171583e-04	5.481511e-01	1.420837e+00	
356	8.171943e-04	5.481511e-01	1.402867e+00	
357	8.172302e-04	5.481511e-01	1.384898e+00	
358	8.172661e-04	5.481511e-01	1.366928e+00	
359	8.173021e-04	5.481510e-01	1.348959e+00	
360	8.173380e-04	5.481510e-01	1.330989e+00	
361	8.173740e-04	5.481510e-01	1.313020e+00	
362	8.174099e-04	5.481509e-01	1.295050e+00	
363	8.174458e-04	5.481509e-01	1.277081e+00	
364	8.174818e-04	5.481509e-01	1.259111e+00	
365	8.175177e-04	5.481509e-01	1.241142e+00	
366	8.175537e-04	5.481509e-01	1.223172e+00	
367	8.175896e-04	5.481508e-01	1.205203e+00	
368	8.176255e-04	5.481508e-01	1.187233e+00	
369	8.176615e-04	5.481508e-01	1.169264e+00	
370	8.176974e-04	5.481508e-01	1.151295e+00	
371	8.177333e-04	5.481508e-01	1.133325e+00	
372	8.177693e-04	5.481508e-01	1.115356e+00	
373	8.178052e-04	5.481508e-01	1.097386e+00	
374	8.178412e-04	5.481507e-01	1.079417e+00	
375	8.178771e-04	5.481507e-01	1.061447e+00	
376	8.179130e-04	5.481507e-01	1.043478e+00	
377	8.179490e-04	5.481507e-01	1.025508e+00	
378	8.179849e-04	5.481507e-01	1.007539e+00	
379	8.180209e-04	5.481507e-01	9.895693e-01	
380	8.180568e-04	5.481507e-01	9.715998e-01	
381	8.180927e-04	5.481507e-01	9.536304e-01	
382	8.181287e-04	5.481507e-01	9.356609e-01	
383	8.181646e-04	5.481507e-01	9.176915e-01	
384	8.182006e-04	5.481506e-01	8.997220e-01	
385	8.182365e-04	5.481506e-01	8.817525e-01	
386	8.182724e-04	5.481506e-01	8.637831e-01	
387	8.183084e-04	5.481506e-01	8.458136e-01	
388	8.183443e-04	5.481506e-01	8.278442e-01	
389	8.183803e-04	5.481506e-01	8.098747e-01	
390	8.184162e-04	5.481506e-01	7.919052e-01	
391	8.184521e-04	5.481506e-01	7.739358e-01	
392	8.184881e-04	5.481506e-01	7.559663e-01	
393	8.185240e-04	5.481507e-01	7.379969e-01	
394	8.185599e-04	5.481507e-01	7.200274e-01	
395	8.185959e-04	5.481509e-01	7.020580e-01	
396	8.186318e-04	5.481512e-01	6.840885e-01	
397	8.186678e-04	5.481518e-01	6.661191e-01	
398	8.187037e-04	5.481531e-01	6.481497e-01	
399	8.187396e-04	5.481557e-01	6.301805e-01	
400	8.187756e-04	5.481608e-01	6.122114e-01	
401	8.188115e-04	5.481710e-01	5.942427e-01	
402	8.188475e-04	5.481915e-01	5.762749e-01	

Index   time            v(a)            v(g)            
--------------------------------------------------------------------------------
403	8.188834e-04	5.482326e-01	5.583087e-01	
404	8.189193e-04	5.483148e-01	5.403460e-01	
405	8.189552e-04	5.484795e-01	5.223904e-01	
406	8.189911e-04	5.488093e-01	5.044494e-01	
407	8.190269e-04	5.494685e-01	4.865377e-01	
408	8.190626e-04	5.507828e-01	4.686852e-01	
409	8.190981e-04	5.533825e-01	4.509490e-01	
410	8.191331e-04	5.584853e-01	4.334332e-01	
411	8.191673e-04	5.679996e-01	4.163263e-01	
412	8.192004e-04	5.838117e-01	3.998193e-01	
