
Note: No compatibility mode selected!


Circuit: master3 dc - dac into rc

Doing analysis at TEMP = 27.000000 and TNOM = 27.000000

Using transient initial conditions

No. of Data Rows : 5011
                            master3 dc - dac into rc
                            Transient Analysis  Tue Mar 31 22:29:50  2026
--------------------------------------------------------------------------------
Index   time            v(vref)         v(rc_node)      v(cap_pos)      
--------------------------------------------------------------------------------
0	1.000000e-08	5.000000e+00	2.840912e+00	2.840883e-05	
1	2.000000e-08	5.000000e+00	2.840914e+00	5.681741e-05	
2	4.000000e-08	5.000000e+00	2.840919e+00	1.136340e-04	
3	8.000000e-08	5.000000e+00	2.840930e+00	2.272642e-04	
4	1.600000e-07	5.000000e+00	2.840950e+00	4.545121e-04	
5	3.200000e-07	5.000000e+00	2.840992e+00	9.089584e-04	
6	6.400000e-07	5.000000e+00	2.841074e+00	1.817653e-03	
7	1.000000e-06	5.000000e+00	2.841167e+00	2.839618e-03	
8	1.064000e-06	5.000000e+00	2.841184e+00	3.021260e-03	
9	1.192000e-06	5.000000e+00	2.841217e+00	3.384524e-03	
10	1.448000e-06	5.000000e+00	2.841283e+00	4.110925e-03	
11	1.960000e-06	5.000000e+00	2.841415e+00	5.563219e-03	
12	2.960000e-06	5.000000e+00	2.841673e+00	8.397782e-03	
13	3.960000e-06	5.000000e+00	2.841930e+00	1.122977e-02	
14	4.960000e-06	5.000000e+00	2.842187e+00	1.405918e-02	
15	5.960000e-06	5.000000e+00	2.842444e+00	1.688603e-02	
16	6.960000e-06	5.000000e+00	2.842701e+00	1.971030e-02	
17	7.960000e-06	5.000000e+00	2.842957e+00	2.253201e-02	
18	8.960000e-06	5.000000e+00	2.843214e+00	2.535115e-02	
19	9.960000e-06	5.000000e+00	2.843470e+00	2.816774e-02	
20	1.096000e-05	5.000000e+00	2.843726e+00	3.098176e-02	
21	1.196000e-05	5.000000e+00	2.843981e+00	3.379322e-02	
22	1.296000e-05	5.000000e+00	2.844237e+00	3.660214e-02	
23	1.396000e-05	5.000000e+00	2.844492e+00	3.940849e-02	
24	1.496000e-05	5.000000e+00	2.844747e+00	4.221230e-02	
25	1.596000e-05	5.000000e+00	2.845001e+00	4.501356e-02	
26	1.696000e-05	5.000000e+00	2.845256e+00	4.781228e-02	
27	1.796000e-05	5.000000e+00	2.845510e+00	5.060845e-02	
28	1.896000e-05	5.000000e+00	2.845764e+00	5.340208e-02	
29	1.996000e-05	5.000000e+00	2.846018e+00	5.619318e-02	
30	2.096000e-05	5.000000e+00	2.846271e+00	5.898173e-02	
31	2.196000e-05	5.000000e+00	2.846524e+00	6.176776e-02	
32	2.296000e-05	5.000000e+00	2.846777e+00	6.455125e-02	
33	2.396000e-05	5.000000e+00	2.847030e+00	6.733221e-02	
34	2.496000e-05	5.000000e+00	2.847283e+00	7.011064e-02	
35	2.596000e-05	5.000000e+00	2.847535e+00	7.288655e-02	
36	2.696000e-05	5.000000e+00	2.847787e+00	7.565994e-02	
37	2.796000e-05	5.000000e+00	2.848039e+00	7.843081e-02	
38	2.896000e-05	5.000000e+00	2.848291e+00	8.119916e-02	
39	2.996000e-05	5.000000e+00	2.848542e+00	8.396500e-02	
40	3.096000e-05	5.000000e+00	2.848793e+00	8.672832e-02	
41	3.196000e-05	5.000000e+00	2.849044e+00	8.948913e-02	
42	3.296000e-05	5.000000e+00	2.849295e+00	9.224743e-02	
43	3.396000e-05	5.000000e+00	2.849546e+00	9.500322e-02	
44	3.496000e-05	5.000000e+00	2.849796e+00	9.775651e-02	
45	3.596000e-05	5.000000e+00	2.850046e+00	1.005073e-01	
46	3.696000e-05	5.000000e+00	2.850296e+00	1.032556e-01	
47	3.796000e-05	5.000000e+00	2.850546e+00	1.060014e-01	
48	3.896000e-05	5.000000e+00	2.850795e+00	1.087447e-01	
49	3.996000e-05	5.000000e+00	2.851044e+00	1.114855e-01	
50	4.096000e-05	5.000000e+00	2.851293e+00	1.142238e-01	
51	4.196000e-05	5.000000e+00	2.851542e+00	1.169596e-01	
52	4.296000e-05	5.000000e+00	2.851790e+00	1.196930e-01	
53	4.396000e-05	5.000000e+00	2.852039e+00	1.224238e-01	
54	4.496000e-05	5.000000e+00	2.852287e+00	1.251522e-01	

Index   time            v(vref)         v(rc_node)      v(cap_pos)      
--------------------------------------------------------------------------------
55	4.596000e-05	5.000000e+00	2.852534e+00	1.278781e-01	
56	4.696000e-05	5.000000e+00	2.852782e+00	1.306015e-01	
57	4.796000e-05	5.000000e+00	2.853029e+00	1.333225e-01	
58	4.896000e-05	5.000000e+00	2.853276e+00	1.360409e-01	
59	4.996000e-05	5.000000e+00	2.853523e+00	1.387569e-01	
60	5.096000e-05	5.000000e+00	2.853770e+00	1.414705e-01	
61	5.196000e-05	5.000000e+00	2.854017e+00	1.441815e-01	
62	5.296000e-05	5.000000e+00	2.854263e+00	1.468901e-01	
63	5.396000e-05	5.000000e+00	2.854509e+00	1.495963e-01	
64	5.496000e-05	5.000000e+00	2.854755e+00	1.523000e-01	
65	5.596000e-05	5.000000e+00	2.855000e+00	1.550012e-01	
66	5.696000e-05	5.000000e+00	2.855245e+00	1.577000e-01	
67	5.796000e-05	5.000000e+00	2.855491e+00	1.603963e-01	
68	5.896000e-05	5.000000e+00	2.855735e+00	1.630901e-01	
69	5.996000e-05	5.000000e+00	2.855980e+00	1.657816e-01	
70	6.096000e-05	5.000000e+00	2.856225e+00	1.684705e-01	
71	6.196000e-05	5.000000e+00	2.856469e+00	1.711571e-01	
72	6.296000e-05	5.000000e+00	2.856713e+00	1.738412e-01	
73	6.396000e-05	5.000000e+00	2.856957e+00	1.765228e-01	
74	6.496000e-05	5.000000e+00	2.857200e+00	1.792020e-01	
75	6.596000e-05	5.000000e+00	2.857444e+00	1.818788e-01	
76	6.696000e-05	5.000000e+00	2.857687e+00	1.845532e-01	
77	6.796000e-05	5.000000e+00	2.857930e+00	1.872251e-01	
78	6.896000e-05	5.000000e+00	2.858172e+00	1.898946e-01	
79	6.996000e-05	5.000000e+00	2.858415e+00	1.925616e-01	
80	7.096000e-05	5.000000e+00	2.858657e+00	1.952263e-01	
81	7.196000e-05	5.000000e+00	2.858899e+00	1.978885e-01	
82	7.296000e-05	5.000000e+00	2.859141e+00	2.005483e-01	
83	7.396000e-05	5.000000e+00	2.859382e+00	2.032057e-01	
84	7.496000e-05	5.000000e+00	2.859624e+00	2.058607e-01	
85	7.596000e-05	5.000000e+00	2.859865e+00	2.085132e-01	
86	7.696000e-05	5.000000e+00	2.860106e+00	2.111634e-01	
87	7.796000e-05	5.000000e+00	2.860346e+00	2.138111e-01	
88	7.896000e-05	5.000000e+00	2.860587e+00	2.164564e-01	
89	7.996000e-05	5.000000e+00	2.860827e+00	2.190994e-01	
90	8.096000e-05	5.000000e+00	2.861067e+00	2.217399e-01	
91	8.196000e-05	5.000000e+00	2.861307e+00	2.243780e-01	
92	8.296000e-05	5.000000e+00	2.861547e+00	2.270138e-01	
93	8.396000e-05	5.000000e+00	2.861786e+00	2.296471e-01	
94	8.496000e-05	5.000000e+00	2.862025e+00	2.322780e-01	
95	8.596000e-05	5.000000e+00	2.862264e+00	2.349066e-01	
96	8.696000e-05	5.000000e+00	2.862503e+00	2.375327e-01	
97	8.796000e-05	5.000000e+00	2.862742e+00	2.401565e-01	
98	8.896000e-05	5.000000e+00	2.862980e+00	2.427779e-01	
99	8.996000e-05	5.000000e+00	2.863218e+00	2.453969e-01	
100	9.096000e-05	5.000000e+00	2.863456e+00	2.480136e-01	
101	9.196000e-05	5.000000e+00	2.863693e+00	2.506278e-01	
102	9.296000e-05	5.000000e+00	2.863931e+00	2.532397e-01	
103	9.396000e-05	5.000000e+00	2.864168e+00	2.558492e-01	
104	9.496000e-05	5.000000e+00	2.864405e+00	2.584563e-01	
105	9.596000e-05	5.000000e+00	2.864642e+00	2.610611e-01	
106	9.696000e-05	5.000000e+00	2.864878e+00	2.636635e-01	
107	9.796000e-05	5.000000e+00	2.865115e+00	2.662635e-01	
108	9.896000e-05	5.000000e+00	2.865351e+00	2.688612e-01	
109	9.996000e-05	5.000000e+00	2.865587e+00	2.714565e-01	
110	1.009600e-04	5.000000e+00	2.865823e+00	2.740495e-01	
111	1.019600e-04	5.000000e+00	2.866058e+00	2.766401e-01	
112	1.029600e-04	5.000000e+00	2.866293e+00	2.792283e-01	

Index   time            v(vref)         v(rc_node)      v(cap_pos)      
--------------------------------------------------------------------------------
113	1.039600e-04	5.000000e+00	2.866529e+00	2.818142e-01	
114	1.049600e-04	5.000000e+00	2.866763e+00	2.843977e-01	
115	1.059600e-04	5.000000e+00	2.866998e+00	2.869789e-01	
116	1.069600e-04	5.000000e+00	2.867233e+00	2.895578e-01	
117	1.079600e-04	5.000000e+00	2.867467e+00	2.921343e-01	
118	1.089600e-04	5.000000e+00	2.867701e+00	2.947084e-01	
119	1.099600e-04	5.000000e+00	2.867935e+00	2.972803e-01	
120	1.109600e-04	5.000000e+00	2.868168e+00	2.998497e-01	
121	1.119600e-04	5.000000e+00	2.868402e+00	3.024169e-01	
122	1.129600e-04	5.000000e+00	2.868635e+00	3.049817e-01	
123	1.139600e-04	5.000000e+00	2.868868e+00	3.075442e-01	
124	1.149600e-04	5.000000e+00	2.869100e+00	3.101044e-01	
125	1.159600e-04	5.000000e+00	2.869333e+00	3.126622e-01	
126	1.169600e-04	5.000000e+00	2.869565e+00	3.152177e-01	
127	1.179600e-04	5.000000e+00	2.869797e+00	3.177709e-01	
128	1.189600e-04	5.000000e+00	2.870029e+00	3.203218e-01	
129	1.199600e-04	5.000000e+00	2.870261e+00	3.228703e-01	
130	1.209600e-04	5.000000e+00	2.870492e+00	3.254165e-01	
131	1.219600e-04	5.000000e+00	2.870724e+00	3.279605e-01	
132	1.229600e-04	5.000000e+00	2.870955e+00	3.305021e-01	
133	1.239600e-04	5.000000e+00	2.871186e+00	3.330414e-01	
134	1.249600e-04	5.000000e+00	2.871416e+00	3.355784e-01	
135	1.259600e-04	5.000000e+00	2.871647e+00	3.381130e-01	
136	1.269600e-04	5.000000e+00	2.871877e+00	3.406454e-01	
137	1.279600e-04	5.000000e+00	2.872107e+00	3.431755e-01	
138	1.289600e-04	5.000000e+00	2.872337e+00	3.457033e-01	
139	1.299600e-04	5.000000e+00	2.872566e+00	3.482288e-01	
140	1.309600e-04	5.000000e+00	2.872796e+00	3.507520e-01	
141	1.319600e-04	5.000000e+00	2.873025e+00	3.532729e-01	
142	1.329600e-04	5.000000e+00	2.873254e+00	3.557915e-01	
143	1.339600e-04	5.000000e+00	2.873483e+00	3.583078e-01	
144	1.349600e-04	5.000000e+00	2.873711e+00	3.608218e-01	
145	1.359600e-04	5.000000e+00	2.873939e+00	3.633336e-01	
146	1.369600e-04	5.000000e+00	2.874168e+00	3.658430e-01	
147	1.379600e-04	5.000000e+00	2.874395e+00	3.683502e-01	
148	1.389600e-04	5.000000e+00	2.874623e+00	3.708551e-01	
149	1.399600e-04	5.000000e+00	2.874851e+00	3.733578e-01	
150	1.409600e-04	5.000000e+00	2.875078e+00	3.758581e-01	
151	1.419600e-04	5.000000e+00	2.875305e+00	3.783562e-01	
152	1.429600e-04	5.000000e+00	2.875532e+00	3.808520e-01	
153	1.439600e-04	5.000000e+00	2.875759e+00	3.833456e-01	
154	1.449600e-04	5.000000e+00	2.875985e+00	3.858368e-01	
155	1.459600e-04	5.000000e+00	2.876211e+00	3.883259e-01	
156	1.469600e-04	5.000000e+00	2.876438e+00	3.908126e-01	
157	1.479600e-04	5.000000e+00	2.876663e+00	3.932971e-01	
158	1.489600e-04	5.000000e+00	2.876889e+00	3.957793e-01	
159	1.499600e-04	5.000000e+00	2.877114e+00	3.982593e-01	
160	1.509600e-04	5.000000e+00	2.877340e+00	4.007371e-01	
161	1.519600e-04	5.000000e+00	2.877565e+00	4.032125e-01	
162	1.529600e-04	5.000000e+00	2.877790e+00	4.056858e-01	
163	1.539600e-04	5.000000e+00	2.878014e+00	4.081567e-01	
164	1.549600e-04	5.000000e+00	2.878239e+00	4.106255e-01	
165	1.559600e-04	5.000000e+00	2.878463e+00	4.130920e-01	
166	1.569600e-04	5.000000e+00	2.878687e+00	4.155562e-01	
167	1.579600e-04	5.000000e+00	2.878911e+00	4.180182e-01	
168	1.589600e-04	5.000000e+00	2.879134e+00	4.204780e-01	
169	1.599600e-04	5.000000e+00	2.879358e+00	4.229355e-01	
170	1.609600e-04	5.000000e+00	2.879581e+00	4.253909e-01	

Index   time            v(vref)         v(rc_node)      v(cap_pos)      
--------------------------------------------------------------------------------
171	1.619600e-04	5.000000e+00	2.879804e+00	4.278439e-01	
172	1.629600e-04	5.000000e+00	2.880027e+00	4.302948e-01	
173	1.639600e-04	5.000000e+00	2.880249e+00	4.327434e-01	
174	1.649600e-04	5.000000e+00	2.880472e+00	4.351898e-01	
175	1.659600e-04	5.000000e+00	2.880694e+00	4.376340e-01	
176	1.669600e-04	5.000000e+00	2.880916e+00	4.400759e-01	
177	1.679600e-04	5.000000e+00	2.881138e+00	4.425156e-01	
178	1.689600e-04	5.000000e+00	2.881359e+00	4.449532e-01	
179	1.699600e-04	5.000000e+00	2.881581e+00	4.473885e-01	
180	1.709600e-04	5.000000e+00	2.881802e+00	4.498215e-01	
181	1.719600e-04	5.000000e+00	2.882023e+00	4.522524e-01	
182	1.729600e-04	5.000000e+00	2.882244e+00	4.546811e-01	
183	1.739600e-04	5.000000e+00	2.882464e+00	4.571075e-01	
184	1.749600e-04	5.000000e+00	2.882685e+00	4.595318e-01	
185	1.759600e-04	5.000000e+00	2.882905e+00	4.619538e-01	
186	1.769600e-04	5.000000e+00	2.883125e+00	4.643737e-01	
187	1.779600e-04	5.000000e+00	2.883345e+00	4.667914e-01	
188	1.789600e-04	5.000000e+00	2.883564e+00	4.692068e-01	
189	1.799600e-04	5.000000e+00	2.883784e+00	4.716201e-01	
190	1.809600e-04	5.000000e+00	2.884003e+00	4.740311e-01	
191	1.819600e-04	5.000000e+00	2.884222e+00	4.764400e-01	
192	1.829600e-04	5.000000e+00	2.884441e+00	4.788467e-01	
193	1.839600e-04	5.000000e+00	2.884659e+00	4.812512e-01	
194	1.849600e-04	5.000000e+00	2.884878e+00	4.836535e-01	
195	1.859600e-04	5.000000e+00	2.885096e+00	4.860536e-01	
196	1.869600e-04	5.000000e+00	2.885314e+00	4.884516e-01	
197	1.879600e-04	5.000000e+00	2.885532e+00	4.908474e-01	
198	1.889600e-04	5.000000e+00	2.885749e+00	4.932410e-01	
199	1.899600e-04	5.000000e+00	2.885967e+00	4.956324e-01	
200	1.909600e-04	5.000000e+00	2.886184e+00	4.980216e-01	
201	1.919600e-04	5.000000e+00	2.886401e+00	5.004087e-01	
202	1.929600e-04	5.000000e+00	2.886618e+00	5.027936e-01	
203	1.939600e-04	5.000000e+00	2.886834e+00	5.051764e-01	
204	1.949600e-04	5.000000e+00	2.887051e+00	5.075569e-01	
205	1.959600e-04	5.000000e+00	2.887267e+00	5.099354e-01	
206	1.969600e-04	5.000000e+00	2.887483e+00	5.123116e-01	
207	1.979600e-04	5.000000e+00	2.887699e+00	5.146857e-01	
208	1.989600e-04	5.000000e+00	2.887914e+00	5.170576e-01	
209	1.999600e-04	5.000000e+00	2.888130e+00	5.194274e-01	
210	2.009600e-04	5.000000e+00	2.888345e+00	5.217950e-01	
211	2.019600e-04	5.000000e+00	2.888560e+00	5.241605e-01	
212	2.029600e-04	5.000000e+00	2.888775e+00	5.265238e-01	
213	2.039600e-04	5.000000e+00	2.888990e+00	5.288850e-01	
214	2.049600e-04	5.000000e+00	2.889204e+00	5.312440e-01	
215	2.059600e-04	5.000000e+00	2.889418e+00	5.336009e-01	
216	2.069600e-04	5.000000e+00	2.889632e+00	5.359557e-01	
217	2.079600e-04	5.000000e+00	2.889846e+00	5.383083e-01	
218	2.089600e-04	5.000000e+00	2.890060e+00	5.406588e-01	
219	2.099600e-04	5.000000e+00	2.890273e+00	5.430071e-01	
220	2.109600e-04	5.000000e+00	2.890487e+00	5.453533e-01	
221	2.119600e-04	5.000000e+00	2.890700e+00	5.476974e-01	
222	2.129600e-04	5.000000e+00	2.890913e+00	5.500393e-01	
223	2.139600e-04	5.000000e+00	2.891125e+00	5.523791e-01	
224	2.149600e-04	5.000000e+00	2.891338e+00	5.547168e-01	
225	2.159600e-04	5.000000e+00	2.891550e+00	5.570524e-01	
226	2.169600e-04	5.000000e+00	2.891762e+00	5.593858e-01	
227	2.179600e-04	5.000000e+00	2.891974e+00	5.617171e-01	
228	2.189600e-04	5.000000e+00	2.892186e+00	5.640463e-01	

Index   time            v(vref)         v(rc_node)      v(cap_pos)      
--------------------------------------------------------------------------------
229	2.199600e-04	5.000000e+00	2.892398e+00	5.663734e-01	
230	2.209600e-04	5.000000e+00	2.892609e+00	5.686984e-01	
231	2.219600e-04	5.000000e+00	2.892820e+00	5.710212e-01	
232	2.229600e-04	5.000000e+00	2.893031e+00	5.733420e-01	
233	2.239600e-04	5.000000e+00	2.893242e+00	5.756606e-01	
234	2.249600e-04	5.000000e+00	2.893452e+00	5.779771e-01	
235	2.259600e-04	5.000000e+00	2.893663e+00	5.802915e-01	
236	2.269600e-04	5.000000e+00	2.893873e+00	5.826039e-01	
237	2.279600e-04	5.000000e+00	2.894083e+00	5.849141e-01	
238	2.289600e-04	5.000000e+00	2.894293e+00	5.872222e-01	
239	2.299600e-04	5.000000e+00	2.894503e+00	5.895282e-01	
240	2.309600e-04	5.000000e+00	2.894712e+00	5.918321e-01	
241	2.319600e-04	5.000000e+00	2.894921e+00	5.941340e-01	
242	2.329600e-04	5.000000e+00	2.895130e+00	5.964337e-01	
243	2.339600e-04	5.000000e+00	2.895339e+00	5.987314e-01	
244	2.349600e-04	5.000000e+00	2.895548e+00	6.010269e-01	
245	2.359600e-04	5.000000e+00	2.895756e+00	6.033204e-01	
246	2.369600e-04	5.000000e+00	2.895965e+00	6.056118e-01	
247	2.379600e-04	5.000000e+00	2.896173e+00	6.079011e-01	
248	2.389600e-04	5.000000e+00	2.896381e+00	6.101884e-01	
249	2.399600e-04	5.000000e+00	2.896589e+00	6.124735e-01	
250	2.409600e-04	5.000000e+00	2.896796e+00	6.147566e-01	
251	2.419600e-04	5.000000e+00	2.897003e+00	6.170376e-01	
252	2.429600e-04	5.000000e+00	2.897211e+00	6.193165e-01	
253	2.439600e-04	5.000000e+00	2.897418e+00	6.215934e-01	
254	2.449600e-04	5.000000e+00	2.897624e+00	6.238682e-01	
255	2.459600e-04	5.000000e+00	2.897831e+00	6.261409e-01	
256	2.469600e-04	5.000000e+00	2.898037e+00	6.284116e-01	
257	2.479600e-04	5.000000e+00	2.898244e+00	6.306801e-01	
258	2.489600e-04	5.000000e+00	2.898450e+00	6.329467e-01	
259	2.499600e-04	5.000000e+00	2.898656e+00	6.352112e-01	
260	2.509600e-04	5.000000e+00	2.898861e+00	6.374736e-01	
261	2.519600e-04	5.000000e+00	2.899067e+00	6.397339e-01	
262	2.529600e-04	5.000000e+00	2.899272e+00	6.419922e-01	
263	2.539600e-04	5.000000e+00	2.899477e+00	6.442485e-01	
264	2.549600e-04	5.000000e+00	2.899682e+00	6.465027e-01	
265	2.559600e-04	5.000000e+00	2.899887e+00	6.487549e-01	
266	2.569600e-04	5.000000e+00	2.900091e+00	6.510050e-01	
267	2.579600e-04	5.000000e+00	2.900296e+00	6.532530e-01	
268	2.589600e-04	5.000000e+00	2.900500e+00	6.554990e-01	
269	2.599600e-04	5.000000e+00	2.900704e+00	6.577430e-01	
270	2.609600e-04	5.000000e+00	2.900908e+00	6.599850e-01	
271	2.619600e-04	5.000000e+00	2.901111e+00	6.622249e-01	
272	2.629600e-04	5.000000e+00	2.901315e+00	6.644627e-01	
273	2.639600e-04	5.000000e+00	2.901518e+00	6.666986e-01	
274	2.649600e-04	5.000000e+00	2.901721e+00	6.689324e-01	
275	2.659600e-04	5.000000e+00	2.901924e+00	6.711642e-01	
276	2.669600e-04	5.000000e+00	2.902127e+00	6.733939e-01	
277	2.679600e-04	5.000000e+00	2.902329e+00	6.756216e-01	
278	2.689600e-04	5.000000e+00	2.902532e+00	6.778473e-01	
279	2.699600e-04	5.000000e+00	2.902734e+00	6.800710e-01	
280	2.709600e-04	5.000000e+00	2.902936e+00	6.822926e-01	
281	2.719600e-04	5.000000e+00	2.903137e+00	6.845123e-01	
282	2.729600e-04	5.000000e+00	2.903339e+00	6.867299e-01	
283	2.739600e-04	5.000000e+00	2.903540e+00	6.889455e-01	
284	2.749600e-04	5.000000e+00	2.903742e+00	6.911591e-01	
285	2.759600e-04	5.000000e+00	2.903943e+00	6.933707e-01	
286	2.769600e-04	5.000000e+00	2.904144e+00	6.955802e-01	

Index   time            v(vref)         v(rc_node)      v(cap_pos)      
--------------------------------------------------------------------------------
287	2.779600e-04	5.000000e+00	2.904344e+00	6.977878e-01	
288	2.789600e-04	5.000000e+00	2.904545e+00	6.999933e-01	
289	2.799600e-04	5.000000e+00	2.904745e+00	7.021969e-01	
290	2.809600e-04	5.000000e+00	2.904945e+00	7.043984e-01	
291	2.819600e-04	5.000000e+00	2.905145e+00	7.065980e-01	
292	2.829600e-04	5.000000e+00	2.905345e+00	7.087955e-01	
293	2.839600e-04	5.000000e+00	2.905545e+00	7.109911e-01	
294	2.849600e-04	5.000000e+00	2.905744e+00	7.131846e-01	
295	2.859600e-04	5.000000e+00	2.905943e+00	7.153762e-01	
296	2.869600e-04	5.000000e+00	2.906142e+00	7.175658e-01	
297	2.879600e-04	5.000000e+00	2.906341e+00	7.197534e-01	
298	2.889600e-04	5.000000e+00	2.906540e+00	7.219390e-01	
299	2.899600e-04	5.000000e+00	2.906738e+00	7.241226e-01	
300	2.909600e-04	5.000000e+00	2.906937e+00	7.263042e-01	
301	2.919600e-04	5.000000e+00	2.907135e+00	7.284838e-01	
302	2.929600e-04	5.000000e+00	2.907333e+00	7.306615e-01	
303	2.939600e-04	5.000000e+00	2.907531e+00	7.328372e-01	
304	2.949600e-04	5.000000e+00	2.907728e+00	7.350109e-01	
305	2.959600e-04	5.000000e+00	2.907926e+00	7.371826e-01	
306	2.969600e-04	5.000000e+00	2.908123e+00	7.393524e-01	
307	2.979600e-04	5.000000e+00	2.908320e+00	7.415202e-01	
308	2.989600e-04	5.000000e+00	2.908517e+00	7.436860e-01	
309	2.999600e-04	5.000000e+00	2.908714e+00	7.458498e-01	
310	3.009600e-04	5.000000e+00	2.908910e+00	7.480117e-01	
311	3.019600e-04	5.000000e+00	2.909107e+00	7.501716e-01	
312	3.029600e-04	5.000000e+00	2.909303e+00	7.523296e-01	
313	3.039600e-04	5.000000e+00	2.909499e+00	7.544856e-01	
314	3.049600e-04	5.000000e+00	2.909695e+00	7.566396e-01	
315	3.059600e-04	5.000000e+00	2.909890e+00	7.587917e-01	
316	3.069600e-04	5.000000e+00	2.910086e+00	7.609418e-01	
317	3.079600e-04	5.000000e+00	2.910281e+00	7.630900e-01	
318	3.089600e-04	5.000000e+00	2.910476e+00	7.652362e-01	
319	3.099600e-04	5.000000e+00	2.910671e+00	7.673804e-01	
320	3.109600e-04	5.000000e+00	2.910866e+00	7.695228e-01	
321	3.119600e-04	5.000000e+00	2.911060e+00	7.716631e-01	
322	3.129600e-04	5.000000e+00	2.911255e+00	7.738016e-01	
323	3.139600e-04	5.000000e+00	2.911449e+00	7.759380e-01	
324	3.149600e-04	5.000000e+00	2.911643e+00	7.780726e-01	
325	3.159600e-04	5.000000e+00	2.911837e+00	7.802052e-01	
326	3.169600e-04	5.000000e+00	2.912031e+00	7.823358e-01	
327	3.179600e-04	5.000000e+00	2.912224e+00	7.844646e-01	
328	3.189600e-04	5.000000e+00	2.912417e+00	7.865914e-01	
